Title: ** sch_path: /home/bilal/model_generation/fet_sweep.sch 
Date: Fri Mar 22 22:07:56  2024
Plotname: DC transfer characteristic
Flags: real
No. Variables: 8
No. Points: 25
Variables:
	0	v(v-sweep)	voltage
	1	v(m.xm1.msky130_fd_pr__nfet_01v8#body)	voltage
	2	v(m.xm1.msky130_fd_pr__nfet_01v8#dbody)	voltage
	3	v(m.xm1.msky130_fd_pr__nfet_01v8#sbody)	voltage
	4	v(nmos_vds)	voltage
	5	v(nmos_vgs)	voltage
	6	i(vds)	current
	7	i(vgs)	current
Values:
 0	6.000000000000001e-01
	1.796688306426008e-11
	3.160808656437040e-11
	8.985886312478599e-12
	9.000000000000000e-01
	6.000000000000001e-01
	-3.174110969964006e-06
	0.000000000000000e+00

 1	6.250000000000001e-01
	2.198993565356312e-11
	3.361819097917117e-11
	1.099904939270420e-11
	9.000000000000000e-01
	6.250000000000001e-01
	-5.299765090782671e-06
	0.000000000000000e+00

 2	6.500000000000001e-01
	2.769959205168813e-11
	3.647078090916568e-11
	1.385645345513053e-11
	9.000000000000000e-01
	6.500000000000001e-01
	-8.645888802935597e-06
	0.000000000000000e+00

 3	6.750000000000002e-01
	3.512250250278337e-11
	4.017882778289894e-11
	1.757182936026214e-11
	9.000000000000000e-01
	6.750000000000002e-01
	-1.374123995693394e-05
	0.000000000000000e+00

 4	7.000000000000002e-01
	4.375329165236622e-11
	4.448921669210319e-11
	2.189297826576645e-11
	9.000000000000000e-01
	7.000000000000002e-01
	-2.122451206615361e-05
	0.000000000000000e+00

 5	7.250000000000002e-01
	5.246465191433755e-11
	4.883782395221761e-11
	2.625678150167453e-11
	9.000000000000000e-01
	7.250000000000002e-01
	-3.179817439477595e-05
	0.000000000000000e+00

 6	7.500000000000002e-01
	5.976160023571804e-11
	5.247670098731746e-11
	2.991626368518524e-11
	9.000000000000000e-01
	7.500000000000002e-01
	-4.614549781736116e-05
	0.000000000000000e+00

 7	7.750000000000002e-01
	6.433777011537184e-11
	5.475229233631347e-11
	3.221865476275414e-11
	9.000000000000000e-01
	7.750000000000002e-01
	-6.482292238108728e-05
	0.000000000000000e+00

 8	8.000000000000003e-01
	6.559375646892083e-11
	5.536467533486155e-11
	3.286448496907267e-11
	9.000000000000000e-01
	8.000000000000003e-01
	-8.815952202152061e-05
	0.000000000000000e+00

 9	8.250000000000003e-01
	6.377256578520205e-11
	5.443532202122955e-11
	3.197526894729792e-11
	9.000000000000000e-01
	8.250000000000003e-01
	-1.162019486963539e-04
	0.000000000000000e+00

 10	8.500000000000003e-01
	5.969204760337845e-11
	5.237330740738489e-11
	2.995973276365595e-11
	9.000000000000000e-01
	8.500000000000003e-01
	-1.487255959596659e-04
	0.000000000000000e+00

 11	8.750000000000003e-01
	5.433447009725350e-11
	4.967005228864107e-11
	2.730865649267245e-11
	9.000000000000000e-01
	8.750000000000003e-01
	-1.853018460458503e-04
	0.000000000000000e+00

 12	9.000000000000004e-01
	4.854249753602064e-11
	4.674725030710531e-11
	2.444293628328295e-11
	9.000000000000000e-01
	9.000000000000004e-01
	-2.253902594946955e-04
	0.000000000000000e+00

 13	9.250000000000004e-01
	4.289763598188783e-11
	4.389603342293961e-11
	2.165287441121242e-11
	9.000000000000000e-01
	9.250000000000004e-01
	-2.684243523257690e-04
	0.000000000000000e+00

 14	9.500000000000004e-01
	3.773025932972723e-11
	4.128194385361700e-11
	1.910323959620830e-11
	9.000000000000000e-01
	9.500000000000004e-01
	-3.138730098649553e-04
	0.000000000000000e+00

 15	9.750000000000004e-01
	3.318451279485781e-11
	3.897736332310257e-11
	1.686574389736738e-11
	9.000000000000000e-01
	9.750000000000004e-01
	-3.612741154464111e-04
	0.000000000000000e+00

 16	1.000000000000000e+00
	2.928760079716158e-11
	3.699614951371723e-11
	1.495369423161344e-11
	9.000000000000000e-01
	1.000000000000000e+00
	-4.102457479557911e-04
	0.000000000000000e+00

 17	1.025000000000000e+00
	2.600315937231630e-11
	3.532032440751322e-11
	1.334867509908564e-11
	9.000000000000000e-01
	1.025000000000000e+00
	-4.604829889537851e-04
	0.000000000000000e+00

 18	1.050000000000000e+00
	2.326605086846023e-11
	3.391747864121548e-11
	1.201793703449683e-11
	9.000000000000000e-01
	1.050000000000000e+00
	-5.117474480718087e-04
	0.000000000000000e+00

 19	1.075000000000000e+00
	2.100256092317504e-11
	3.275087857736849e-11
	1.092448461694352e-11
	9.000000000000000e-01
	1.075000000000000e+00
	-5.638544322809705e-04
	0.000000000000000e+00

 20	1.100000000000000e+00
	1.914093391116647e-11
	3.178474229188519e-11
	1.003233428830663e-11
	9.000000000000000e-01
	1.100000000000000e+00
	-6.166605919740165e-04
	0.000000000000000e+00

 21	1.125000000000000e+00
	1.761615092423240e-11
	3.098663563243306e-11
	9.308894968163319e-12
	9.000000000000000e-01
	1.125000000000000e+00
	-6.700533539834852e-04
	0.000000000000000e+00

 22	1.150000000000000e+00
	1.637154494582155e-11
	3.032828542702497e-11
	8.725769034357393e-12
	9.000000000000000e-01
	1.150000000000000e+00
	-7.239425179431588e-04
	0.000000000000000e+00

 23	1.175000000000000e+00
	1.535881642975417e-11
	2.978559152346733e-11
	8.258755145272296e-12
	9.000000000000000e-01
	1.175000000000000e+00
	-7.782539025745286e-04
	0.000000000000000e+00

 24	1.200000000000000e+00
	1.453732847376643e-11
	2.933827746934696e-11
	7.887492223536398e-12
	9.000000000000000e-01
	1.200000000000000e+00
	-8.329247214533403e-04
	0.000000000000000e+00

